
T1124 000:133 SEGGER J-Link V4.68a Log File (0001ms, 0132ms total)
T1124 000:133 DLL Compiled: Apr 12 2013 13:26:50 (0001ms, 0132ms total)
T1124 000:133 Logging started @ 2016-03-28 11:45 (0001ms, 0132ms total)
T1124 000:134 JLINK_SetWarnOutHandler(...) (0000ms, 0132ms total)
T1124 000:134 JLINK_OpenEx(...)
Firmware: J-Link ARM V7 compiled Jun 20 2012 19:45:53
Hardware: V7.00
Feature(s): RDI, FlashBP, FlashDL, JFlash, GDBFULL  returns O.K. (0031ms, 0163ms total)
T1124 000:165 JLINK_SetErrorOutHandler(...) (0000ms, 0163ms total)
T1124 000:165 JLINK_ExecCommand("ProjectFile = "E:\Project\NAD\C368\NAD.C368.MCU.Application\trunk\MainApp\JLinkSettings.ini"", ...)
                JLINK_AddMirrorAreaEx(Addr = 0x00000000, Size = 0x00000000) (0000ms, 0000ms total)
              Device "UNSPECIFIED" selected (0 KB flash, 0 KB RAM).  returns 0x00 (0023ms, 0186ms total)
T1124 000:203 JLINK_ExecCommand("Device = TM4C1290NCZAD", ...)
                JLINK_AddMirrorAreaEx(Addr = 0x00000000, Size = 0x00000000) (0000ms, 0000ms total)
              Device "UNSPECIFIED" selected (0 KB flash, 0 KB RAM).  returns 0x00 (0017ms, 0203ms total)
T1124 000:220 JLINK_ExecCommand("DisableConnectionTimeout", ...)  returns 0x00 (0000ms, 0203ms total)
T1124 000:220 JLINK_GetHardwareVersion()  returns 0x11170 (0000ms, 0203ms total)
T1124 000:220 JLINK_GetDLLVersion()  returns 46801 (0000ms, 0203ms total)
T1124 000:220 JLINK_GetFirmwareString(...) (0000ms, 0203ms total)
T1124 000:254 JLINK_GetDLLVersion()  returns 46801 (0000ms, 0203ms total)
T1124 000:254 JLINK_GetCompileDateTime() (0000ms, 0203ms total)
T1124 000:262 JLINK_GetFirmwareString(...) (0000ms, 0203ms total)
T1124 000:266 JLINK_GetHardwareVersion()  returns 0x11170 (0000ms, 0203ms total)
T1124 000:279 JLINK_TIF_Select(JLINKARM_TIF_SWD)  returns 0x00 (0003ms, 0206ms total)
T1124 000:282 JLINK_SetSpeed(2000) (0001ms, 0207ms total)
T1124 000:283 JLINK_GetId() >0x108 TIF>Found SWD-DP with ID 0x2BA01477 >0x0D TIF> >0x21 TIF> >0x0D TIF> >0x28 TIF> >0x0D TIF> >0x28 TIF> >0x0D TIF> >0x21 TIF> >0x0D TIF> >0x21 TIF> >0x0D TIF> >0x28 TIF> >0x0D TIF> >0x21 TIF> >0x0D TIF> >0x21 TIF> >0x0D TIF> >0x21 TIF> >0x0D TIF> >0x21 TIF> >0x0D TIF> >0x28 TIF> >0x0D TIF> >0x21 TIF> >0x0D TIF> >0x28 TIF> >0x0D TIF> >0x28 TIF> >0x0D TIF> >0x21 TIF> >0x0D TIF> >0x21 TIF> >0x0D TIF> >0x28 TIF> >0x0D TIF> >0x21 TIF> >0x0D TIF> >0x21 TIF> >0x0D TIF>
 >0x28 TIF> >0x0D TIF> >0x28 TIF> >0x0D TIF> >0x28 TIF> >0x0D TIF> >0x21 TIF> >0x0D TIF> >0x21 TIF> >0x0D TIF> >0x28 TIF> >0x0D TIF> >0x28 TIF> >0x0D TIF> >0x28 TIF> >0x0D TIF> >0x21 TIF> >0x0D TIF> >0x21 TIF> >0x0D TIF> >0x21 TIF>TPIU fitted.ETM fitted. >0x0D TIF> >0x28 TIF> >0x0D TIF> >0x21 TIF> >0x0D TIF> >0x21 TIF> >0x0D TIF> >0x28 TIF> >0x0D TIF> >0x21 TIF> >0x0D TIF> >0x21 TIF>FPUnit: 6 code (BP) slots and 2 literal slots >0x0D TIF> >0x28 TIF> >0x0D TIF> >0x21 TIF> >0x0D TIF> >0x21 TIF> >0x0D TIF>
 >0x28 TIF> >0x0D TIF> >0x21 TIF> >0x0D TIF> >0x21 TIF> >0x0D TIF> >0x28 TIF> >0x0D TIF> >0x21 TIF> >0x0D TIF> >0x21 TIF> >0x0D TIF> >0x28 TIF> >0x0D TIF> >0x21 TIF> >0x0D TIF> >0x21 TIF>Found Cortex-M4 r0p1, Little endian. >0x0D TIF> >0x28 TIF> >0x0D TIF> >0x21 TIF>  returns 0x2BA01477 (0109ms, 0316ms total)
T1124 000:392 JLINK_GetDeviceFamily()  returns 14 (0000ms, 0316ms total)
T1124 000:396 JLINK_ReadMem (0xE00FFFF0, 0x0010 Bytes, ...) -- CPU is running -- CPU_ReadMem(16 bytes @ 0xE00FFFF0) -- Data:  0D 00 00 00 10 00 00 00 05 00 00 00 B1 00 00 00  returns 0x00 (0000ms, 0316ms total)
T1124 000:396 JLINK_ReadMem (0xE00FFFD0, 0x0020 Bytes, ...) -- CPU is running -- CPU_ReadMem(32 bytes @ 0xE00FFFD0) -- Data:  04 00 00 00 00 00 00 00 00 00 00 00 00 00 00 00 ...  returns 0x00 (0002ms, 0318ms total)
T1124 000:398 JLINK_ReadMem (0xE00FF000, 0x0018 Bytes, ...) -- CPU is running -- CPU_ReadMem(24 bytes @ 0xE00FF000) -- Data:  03 F0 F0 FF 03 20 F0 FF 03 30 F0 FF 03 10 F0 FF ...  returns 0x00 (0002ms, 0320ms total)
T1124 000:400 JLINK_ReadMemU32(0xE000ED00, 0x0001 Items, ...) -- CPU is running -- CPU_ReadMem(4 bytes @ 0xE000ED00) -- Data:  41 C2 0F 41  returns 0x01 (0001ms, 0321ms total)
T1124 000:401 JLINK_ReadMemU32(0xE000EF40, 0x0001 Items, ...) -- CPU is running -- CPU_ReadMem(4 bytes @ 0xE000EF40) -- Data:  21 00 11 10  returns 0x01 (0001ms, 0322ms total)
T1124 000:402 JLINK_ReadMemU32(0xE000EF44, 0x0001 Items, ...) -- CPU is running -- CPU_ReadMem(4 bytes @ 0xE000EF44) -- Data:  11 00 00 11  returns 0x01 (0001ms, 0323ms total)
T1124 000:403 JLINK_SetResetType(JLINKARM_RESET_TYPE_NORMAL)  returns JLINKARM_RESET_TYPE_NORMAL (0000ms, 0323ms total)
T1124 000:403 JLINK_Reset() -- CPU_WriteMem(4 bytes @ 0xE0002000) (0015ms, 0338ms total)
T1124 000:418 JLINK_Halt()  returns 0x00 (0000ms, 0338ms total)
T1124 000:418 JLINK_IsHalted()  returns TRUE (0000ms, 0338ms total)
T1124 000:418 JLINK_ReadMemU32(0xE000EDF0, 0x0001 Items, ...) -- CPU_ReadMem(4 bytes @ 0xE000EDF0) -- Data:  03 00 03 00  returns 0x01 (0002ms, 0340ms total)
T1124 000:420 JLINK_WriteU32(0xE000EDF0, 0xA05F0003) -- CPU_WriteMem(4 bytes @ 0xE000EDF0)  returns 0x00 (0001ms, 0341ms total)
T1124 000:421 JLINK_WriteU32(0xE000EDFC, 0x01000000) -- CPU_WriteMem(4 bytes @ 0xE000EDFC)  returns 0x00 (0001ms, 0342ms total)
T1124 000:437 JLINK_GetHWStatus(...)  returns 0x00 (0001ms, 0343ms total)
T1124 000:450 JLINK_GetNumBPUnits(Type = 0xFFFFFF00)  returns 0x06 (0000ms, 0343ms total)
T1124 000:450 JLINK_GetNumBPUnits(Type = 0xF0)  returns 0x2000 (0000ms, 0343ms total)
T1124 000:450 JLINK_GetNumWPUnits()  returns 0x04 (0000ms, 0343ms total)
T1124 000:461 JLINK_GetSpeed()  returns 0x7D0 (0000ms, 0343ms total)
T1124 000:470 JLINK_ReadMemU32(0xE000E004, 0x0001 Items, ...) -- CPU_ReadMem(4 bytes @ 0xE000E004) -- Data:  03 00 00 00  returns 0x01 (0002ms, 0345ms total)
T1124 000:472 JLINK_ReadMemU32(0xE000E004, 0x0001 Items, ...) -- CPU_ReadMem(4 bytes @ 0xE000E004) -- Data:  03 00 00 00  returns 0x01 (0001ms, 0346ms total)
T1124 000:473 JLINK_WriteMem(0xE0001000, 0x001C Bytes, ...) -- Data:  01 00 00 00 00 00 00 00 00 00 00 00 00 00 00 00 ... -- CPU_WriteMem(28 bytes @ 0xE0001000)  returns 0x1C (0001ms, 0347ms total)
T1124 000:474 JLINK_ReadMem (0xE0001000, 0x001C Bytes, ...) -- CPU_ReadMem(28 bytes @ 0xE0001000) -- Data:  01 00 00 40 00 00 00 00 00 00 00 00 00 00 00 00 ...  returns 0x00 (0002ms, 0349ms total)
T1124 000:476 JLINK_Halt()  returns 0x00 (0000ms, 0349ms total)
T1124 000:476 JLINK_IsHalted()  returns TRUE (0000ms, 0349ms total)
T1124 000:478 JLINK_WriteMem(0x20000000, 0x0128 Bytes, ...) -- Data:  00 BE 0A E0 0D 78 2D 06 68 40 08 24 40 00 00 D3 ... -- CPU_WriteMem(296 bytes @ 0x20000000)  returns 0x128 (0004ms, 0353ms total)
T1124 000:482 JLINK_WriteReg(R0, 0x00000000)  returns 0x00 (0000ms, 0353ms total)
T1124 000:482 JLINK_WriteReg(R1, 0x00F42400)  returns 0x00 (0000ms, 0353ms total)
T1124 000:482 JLINK_WriteReg(R2, 0x00000001)  returns 0x00 (0000ms, 0353ms total)
T1124 000:482 JLINK_WriteReg(R3, 0x00000000)  returns 0x00 (0000ms, 0353ms total)
T1124 000:482 JLINK_WriteReg(R4, 0x00000000)  returns 0x00 (0000ms, 0353ms total)
T1124 000:482 JLINK_WriteReg(R5, 0x00000000)  returns 0x00 (0000ms, 0353ms total)
T1124 000:482 JLINK_WriteReg(R6, 0x00000000)  returns 0x00 (0000ms, 0353ms total)
T1124 000:482 JLINK_WriteReg(R7, 0x00000000)  returns 0x00 (0000ms, 0353ms total)
T1124 000:482 JLINK_WriteReg(R8, 0x00000000)  returns 0x00 (0000ms, 0353ms total)
T1124 000:482 JLINK_WriteReg(R9, 0x20000124)  returns 0x00 (0000ms, 0353ms total)
T1124 000:482 JLINK_WriteReg(R10, 0x00000000)  returns 0x00 (0000ms, 0353ms total)
T1124 000:482 JLINK_WriteReg(R11, 0x00000000)  returns 0x00 (0000ms, 0353ms total)
T1124 000:482 JLINK_WriteReg(R12, 0x00000000)  returns 0x00 (0000ms, 0353ms total)
T1124 000:482 JLINK_WriteReg(R13, 0x20000800)  returns 0x00 (0000ms, 0353ms total)
T1124 000:482 JLINK_WriteReg(R14, 0x20000001)  returns 0x00 (0000ms, 0353ms total)
T1124 000:482 JLINK_WriteReg(R15, 0x20000038)  returns 0x00 (0000ms, 0353ms total)
T1124 000:482 JLINK_WriteReg(XPSR, 0x01000000)  returns 0x00 (0000ms, 0353ms total)
T1124 000:482 JLINK_WriteReg(MSP, 0x20000800)  returns 0x00 (0000ms, 0353ms total)
T1124 000:482 JLINK_WriteReg(PSP, 0x20000800)  returns 0x00 (0000ms, 0353ms total)
T1124 000:482 JLINK_WriteReg(CFBP, 0x00000000)  returns 0x00 (0000ms, 0353ms total)
T1124 000:482 JLINK_SetBPEx(Addr = 0x20000000, Type = 0xFFFFFFF2) -- CPU_ReadMem(4 bytes @ 0x20000000) -- CPU_WriteMem(4 bytes @ 0x20000000) -- CPU_ReadMem(4 bytes @ 0x20000000) -- CPU_WriteMem(4 bytes @ 0x20000000) -- CPU_ReadMem(2 bytes @ 0x20000000)  returns 0x00000001 (0006ms, 0359ms total)
T1124 000:488 JLINK_Go() -- CPU_WriteMem(2 bytes @ 0x20000000) -- CPU_WriteMem(4 bytes @ 0xE0002008) -- CPU_WriteMem(4 bytes @ 0xE000200C) -- CPU_WriteMem(4 bytes @ 0xE0002010) -- CPU_WriteMem(4 bytes @ 0xE0002014) -- CPU_WriteMem(4 bytes @ 0xE0002018) -- CPU_WriteMem(4 bytes @ 0xE000201C) (0010ms, 0369ms total)
T1124 000:498 JLINK_IsHalted() -- CPU_ReadMem(2 bytes @ 0x20000000)  returns TRUE (0007ms, 0376ms total)
T1124 000:506 JLINK_ReadReg(R15)  returns 0x20000000 (0000ms, 0369ms total)
T1124 000:506 JLINK_ClrBPEx(BPHandle = 0x00000001)  returns 0x00 (0000ms, 0369ms total)
T1124 000:506 JLINK_ReadReg(R0)  returns 0x00000000 (0000ms, 0369ms total)
T1124 000:506 JLINK_WriteReg(R0, 0x0000C000)  returns 0x00 (0000ms, 0369ms total)
T1124 000:506 JLINK_WriteReg(R1, 0x00004000)  returns 0x00 (0000ms, 0369ms total)
T1124 000:506 JLINK_WriteReg(R2, 0x000000FF)  returns 0x00 (0000ms, 0369ms total)
T1124 000:506 JLINK_WriteReg(R3, 0x00000000)  returns 0x00 (0000ms, 0369ms total)
T1124 000:506 JLINK_WriteReg(R4, 0x00000000)  returns 0x00 (0000ms, 0369ms total)
T1124 000:506 JLINK_WriteReg(R5, 0x00000000)  returns 0x00 (0000ms, 0369ms total)
T1124 000:506 JLINK_WriteReg(R6, 0x00000000)  returns 0x00 (0000ms, 0369ms total)
T1124 000:506 JLINK_WriteReg(R7, 0x00000000)  returns 0x00 (0000ms, 0369ms total)
T1124 000:506 JLINK_WriteReg(R8, 0x00000000)  returns 0x00 (0000ms, 0369ms total)
T1124 000:506 JLINK_WriteReg(R9, 0x20000124)  returns 0x00 (0000ms, 0369ms total)
T1124 000:506 JLINK_WriteReg(R10, 0x00000000)  returns 0x00 (0000ms, 0369ms total)
T1124 000:506 JLINK_WriteReg(R11, 0x00000000)  returns 0x00 (0000ms, 0369ms total)
T1124 000:506 JLINK_WriteReg(R12, 0x00000000)  returns 0x00 (0000ms, 0369ms total)
T1124 000:506 JLINK_WriteReg(R13, 0x20000800)  returns 0x00 (0000ms, 0369ms total)
T1124 000:506 JLINK_WriteReg(R14, 0x20000001)  returns 0x00 (0000ms, 0369ms total)
T1124 000:506 JLINK_WriteReg(R15, 0x20000020)  returns 0x00 (0000ms, 0369ms total)
T1124 000:506 JLINK_WriteReg(XPSR, 0x01000000)  returns 0x00 (0000ms, 0369ms total)
T1124 000:506 JLINK_WriteReg(MSP, 0x20000800)  returns 0x00 (0000ms, 0369ms total)
T1124 000:506 JLINK_WriteReg(PSP, 0x20000800)  returns 0x00 (0000ms, 0369ms total)
T1124 000:506 JLINK_WriteReg(CFBP, 0x00000000)  returns 0x00 (0000ms, 0369ms total)
T1124 000:506 JLINK_SetBPEx(Addr = 0x20000000, Type = 0xFFFFFFF2)  returns 0x00000002 (0000ms, 0369ms total)
T1124 000:506 JLINK_Go() (0003ms, 0372ms total)
T1124 000:509 JLINK_IsHalted()  returns FALSE (0001ms, 0373ms total)
T1124 000:609 JLINK_IsHalted() -- CPU_ReadMem(2 bytes @ 0x20000000)  returns TRUE (0007ms, 0379ms total)
T1124 000:616 JLINK_ReadReg(R15)  returns 0x20000000 (0000ms, 0372ms total)
T1124 000:616 JLINK_ClrBPEx(BPHandle = 0x00000002)  returns 0x00 (0000ms, 0372ms total)
T1124 000:616 JLINK_ReadReg(R0)  returns 0x00000001 (0000ms, 0372ms total)
T1124 000:616 JLINK_WriteReg(R0, 0x0000C000)  returns 0x00 (0000ms, 0372ms total)
T1124 000:616 JLINK_WriteReg(R1, 0x00004000)  returns 0x00 (0000ms, 0372ms total)
T1124 000:616 JLINK_WriteReg(R2, 0x000000FF)  returns 0x00 (0000ms, 0372ms total)
T1124 000:616 JLINK_WriteReg(R3, 0x00000000)  returns 0x00 (0000ms, 0372ms total)
T1124 000:616 JLINK_WriteReg(R4, 0x00000000)  returns 0x00 (0000ms, 0372ms total)
T1124 000:616 JLINK_WriteReg(R5, 0x00000000)  returns 0x00 (0000ms, 0372ms total)
T1124 000:616 JLINK_WriteReg(R6, 0x00000000)  returns 0x00 (0000ms, 0372ms total)
T1124 000:616 JLINK_WriteReg(R7, 0x00000000)  returns 0x00 (0000ms, 0372ms total)
T1124 000:616 JLINK_WriteReg(R8, 0x00000000)  returns 0x00 (0000ms, 0372ms total)
T1124 000:616 JLINK_WriteReg(R9, 0x20000124)  returns 0x00 (0000ms, 0372ms total)
T1124 000:616 JLINK_WriteReg(R10, 0x00000000)  returns 0x00 (0000ms, 0372ms total)
T1124 000:616 JLINK_WriteReg(R11, 0x00000000)  returns 0x00 (0000ms, 0372ms total)
T1124 000:616 JLINK_WriteReg(R12, 0x00000000)  returns 0x00 (0000ms, 0372ms total)
T1124 000:616 JLINK_WriteReg(R13, 0x20000800)  returns 0x00 (0000ms, 0372ms total)
T1124 000:616 JLINK_WriteReg(R14, 0x20000001)  returns 0x00 (0000ms, 0372ms total)
T1124 000:616 JLINK_WriteReg(R15, 0x20000070)  returns 0x00 (0000ms, 0372ms total)
T1124 000:616 JLINK_WriteReg(XPSR, 0x01000000)  returns 0x00 (0000ms, 0372ms total)
T1124 000:616 JLINK_WriteReg(MSP, 0x20000800)  returns 0x00 (0000ms, 0372ms total)
T1124 000:616 JLINK_WriteReg(PSP, 0x20000800)  returns 0x00 (0000ms, 0372ms total)
T1124 000:616 JLINK_WriteReg(CFBP, 0x00000000)  returns 0x00 (0000ms, 0372ms total)
T1124 000:616 JLINK_SetBPEx(Addr = 0x20000000, Type = 0xFFFFFFF2)  returns 0x00000003 (0000ms, 0372ms total)
T1124 000:616 JLINK_Go() (0003ms, 0375ms total)
T1124 000:619 JLINK_IsHalted()  returns FALSE (0001ms, 0376ms total)
T1124 000:704 JLINK_IsHalted() -- CPU_ReadMem(2 bytes @ 0x20000000)  returns TRUE (0007ms, 0382ms total)
T1124 000:711 JLINK_ReadReg(R15)  returns 0x20000000 (0000ms, 0375ms total)
T1124 000:711 JLINK_ClrBPEx(BPHandle = 0x00000003)  returns 0x00 (0000ms, 0375ms total)
T1124 000:711 JLINK_ReadReg(R0)  returns 0x00000000 (0000ms, 0375ms total)
T1124 000:712 JLINK_WriteReg(R0, 0x00010000)  returns 0x00 (0000ms, 0375ms total)
T1124 000:712 JLINK_WriteReg(R1, 0x00004000)  returns 0x00 (0000ms, 0375ms total)
T1124 000:712 JLINK_WriteReg(R2, 0x000000FF)  returns 0x00 (0000ms, 0375ms total)
T1124 000:712 JLINK_WriteReg(R3, 0x00000000)  returns 0x00 (0000ms, 0375ms total)
T1124 000:712 JLINK_WriteReg(R4, 0x00000000)  returns 0x00 (0000ms, 0375ms total)
T1124 000:712 JLINK_WriteReg(R5, 0x00000000)  returns 0x00 (0000ms, 0375ms total)
T1124 000:712 JLINK_WriteReg(R6, 0x00000000)  returns 0x00 (0000ms, 0375ms total)
T1124 000:712 JLINK_WriteReg(R7, 0x00000000)  returns 0x00 (0000ms, 0375ms total)
T1124 000:712 JLINK_WriteReg(R8, 0x00000000)  returns 0x00 (0000ms, 0375ms total)
T1124 000:712 JLINK_WriteReg(R9, 0x20000124)  returns 0x00 (0000ms, 0375ms total)
T1124 000:712 JLINK_WriteReg(R10, 0x00000000)  returns 0x00 (0000ms, 0375ms total)
T1124 000:712 JLINK_WriteReg(R11, 0x00000000)  returns 0x00 (0000ms, 0375ms total)
T1124 000:712 JLINK_WriteReg(R12, 0x00000000)  returns 0x00 (0000ms, 0375ms total)
T1124 000:712 JLINK_WriteReg(R13, 0x20000800)  returns 0x00 (0000ms, 0375ms total)
T1124 000:712 JLINK_WriteReg(R14, 0x20000001)  returns 0x00 (0000ms, 0375ms total)
T1124 000:712 JLINK_WriteReg(R15, 0x20000020)  returns 0x00 (0000ms, 0375ms total)
T1124 000:712 JLINK_WriteReg(XPSR, 0x01000000)  returns 0x00 (0000ms, 0375ms total)
T1124 000:712 JLINK_WriteReg(MSP, 0x20000800)  returns 0x00 (0000ms, 0375ms total)
T1124 000:712 JLINK_WriteReg(PSP, 0x20000800)  returns 0x00 (0000ms, 0375ms total)
T1124 000:712 JLINK_WriteReg(CFBP, 0x00000000)  returns 0x00 (0000ms, 0375ms total)
T1124 000:712 JLINK_SetBPEx(Addr = 0x20000000, Type = 0xFFFFFFF2)  returns 0x00000004 (0000ms, 0375ms total)
T1124 000:712 JLINK_Go() (0003ms, 0378ms total)
T1124 000:715 JLINK_IsHalted() -- CPU_ReadMem(2 bytes @ 0x20000000)  returns TRUE (0007ms, 0385ms total)
T1124 000:722 JLINK_ReadReg(R15)  returns 0x20000000 (0000ms, 0378ms total)
T1124 000:722 JLINK_ClrBPEx(BPHandle = 0x00000004)  returns 0x00 (0000ms, 0378ms total)
T1124 000:722 JLINK_ReadReg(R0)  returns 0x00000001 (0000ms, 0378ms total)
T1124 000:722 JLINK_WriteReg(R0, 0x00010000)  returns 0x00 (0000ms, 0378ms total)
T1124 000:722 JLINK_WriteReg(R1, 0x00004000)  returns 0x00 (0000ms, 0378ms total)
T1124 000:722 JLINK_WriteReg(R2, 0x000000FF)  returns 0x00 (0000ms, 0378ms total)
T1124 000:722 JLINK_WriteReg(R3, 0x00000000)  returns 0x00 (0000ms, 0378ms total)
T1124 000:722 JLINK_WriteReg(R4, 0x00000000)  returns 0x00 (0000ms, 0378ms total)
T1124 000:722 JLINK_WriteReg(R5, 0x00000000)  returns 0x00 (0000ms, 0378ms total)
T1124 000:722 JLINK_WriteReg(R6, 0x00000000)  returns 0x00 (0000ms, 0378ms total)
T1124 000:722 JLINK_WriteReg(R7, 0x00000000)  returns 0x00 (0000ms, 0378ms total)
T1124 000:722 JLINK_WriteReg(R8, 0x00000000)  returns 0x00 (0000ms, 0378ms total)
T1124 000:722 JLINK_WriteReg(R9, 0x20000124)  returns 0x00 (0000ms, 0378ms total)
T1124 000:722 JLINK_WriteReg(R10, 0x00000000)  returns 0x00 (0000ms, 0378ms total)
T1124 000:722 JLINK_WriteReg(R11, 0x00000000)  returns 0x00 (0000ms, 0378ms total)
T1124 000:722 JLINK_WriteReg(R12, 0x00000000)  returns 0x00 (0000ms, 0378ms total)
T1124 000:722 JLINK_WriteReg(R13, 0x20000800)  returns 0x00 (0000ms, 0378ms total)
T1124 000:722 JLINK_WriteReg(R14, 0x20000001)  returns 0x00 (0000ms, 0378ms total)
T1124 000:722 JLINK_WriteReg(R15, 0x20000070)  returns 0x00 (0000ms, 0378ms total)
T1124 000:722 JLINK_WriteReg(XPSR, 0x01000000)  returns 0x00 (0000ms, 0378ms total)
T1124 000:722 JLINK_WriteReg(MSP, 0x20000800)  returns 0x00 (0000ms, 0378ms total)
T1124 000:722 JLINK_WriteReg(PSP, 0x20000800)  returns 0x00 (0000ms, 0378ms total)
T1124 000:722 JLINK_WriteReg(CFBP, 0x00000000)  returns 0x00 (0000ms, 0378ms total)
T1124 000:722 JLINK_SetBPEx(Addr = 0x20000000, Type = 0xFFFFFFF2)  returns 0x00000005 (0000ms, 0378ms total)
T1124 000:722 JLINK_Go() (0003ms, 0381ms total)
T1124 000:725 JLINK_IsHalted()  returns FALSE (0001ms, 0382ms total)
T1124 000:812 JLINK_IsHalted() -- CPU_ReadMem(2 bytes @ 0x20000000)  returns TRUE (0007ms, 0388ms total)
T1124 000:819 JLINK_ReadReg(R15)  returns 0x20000000 (0000ms, 0381ms total)
T1124 000:819 JLINK_ClrBPEx(BPHandle = 0x00000005)  returns 0x00 (0000ms, 0381ms total)
T1124 000:819 JLINK_ReadReg(R0)  returns 0x00000000 (0000ms, 0381ms total)
T1124 000:820 JLINK_WriteReg(R0, 0x00014000)  returns 0x00 (0000ms, 0381ms total)
T1124 000:820 JLINK_WriteReg(R1, 0x00004000)  returns 0x00 (0000ms, 0381ms total)
T1124 000:820 JLINK_WriteReg(R2, 0x000000FF)  returns 0x00 (0000ms, 0381ms total)
T1124 000:820 JLINK_WriteReg(R3, 0x00000000)  returns 0x00 (0000ms, 0381ms total)
T1124 000:820 JLINK_WriteReg(R4, 0x00000000)  returns 0x00 (0000ms, 0381ms total)
T1124 000:820 JLINK_WriteReg(R5, 0x00000000)  returns 0x00 (0000ms, 0381ms total)
T1124 000:820 JLINK_WriteReg(R6, 0x00000000)  returns 0x00 (0000ms, 0381ms total)
T1124 000:820 JLINK_WriteReg(R7, 0x00000000)  returns 0x00 (0000ms, 0381ms total)
T1124 000:820 JLINK_WriteReg(R8, 0x00000000)  returns 0x00 (0000ms, 0381ms total)
T1124 000:820 JLINK_WriteReg(R9, 0x20000124)  returns 0x00 (0000ms, 0381ms total)
T1124 000:820 JLINK_WriteReg(R10, 0x00000000)  returns 0x00 (0000ms, 0381ms total)
T1124 000:820 JLINK_WriteReg(R11, 0x00000000)  returns 0x00 (0000ms, 0381ms total)
T1124 000:820 JLINK_WriteReg(R12, 0x00000000)  returns 0x00 (0000ms, 0381ms total)
T1124 000:820 JLINK_WriteReg(R13, 0x20000800)  returns 0x00 (0000ms, 0381ms total)
T1124 000:820 JLINK_WriteReg(R14, 0x20000001)  returns 0x00 (0000ms, 0381ms total)
T1124 000:820 JLINK_WriteReg(R15, 0x20000020)  returns 0x00 (0000ms, 0381ms total)
T1124 000:820 JLINK_WriteReg(XPSR, 0x01000000)  returns 0x00 (0000ms, 0381ms total)
T1124 000:820 JLINK_WriteReg(MSP, 0x20000800)  returns 0x00 (0000ms, 0381ms total)
T1124 000:820 JLINK_WriteReg(PSP, 0x20000800)  returns 0x00 (0000ms, 0381ms total)
T1124 000:820 JLINK_WriteReg(CFBP, 0x00000000)  returns 0x00 (0000ms, 0381ms total)
T1124 000:820 JLINK_SetBPEx(Addr = 0x20000000, Type = 0xFFFFFFF2)  returns 0x00000006 (0000ms, 0381ms total)
T1124 000:820 JLINK_Go() (0003ms, 0384ms total)
T1124 000:823 JLINK_IsHalted() -- CPU_ReadMem(2 bytes @ 0x20000000)  returns TRUE (0008ms, 0392ms total)
T1124 000:831 JLINK_ReadReg(R15)  returns 0x20000000 (0000ms, 0384ms total)
T1124 000:831 JLINK_ClrBPEx(BPHandle = 0x00000006)  returns 0x00 (0000ms, 0384ms total)
T1124 000:831 JLINK_ReadReg(R0)  returns 0x00000001 (0000ms, 0384ms total)
T1124 000:831 JLINK_WriteReg(R0, 0x00014000)  returns 0x00 (0000ms, 0384ms total)
T1124 000:831 JLINK_WriteReg(R1, 0x00004000)  returns 0x00 (0000ms, 0384ms total)
T1124 000:831 JLINK_WriteReg(R2, 0x000000FF)  returns 0x00 (0000ms, 0384ms total)
T1124 000:831 JLINK_WriteReg(R3, 0x00000000)  returns 0x00 (0000ms, 0384ms total)
T1124 000:831 JLINK_WriteReg(R4, 0x00000000)  returns 0x00 (0000ms, 0384ms total)
T1124 000:831 JLINK_WriteReg(R5, 0x00000000)  returns 0x00 (0000ms, 0384ms total)
T1124 000:831 JLINK_WriteReg(R6, 0x00000000)  returns 0x00 (0000ms, 0384ms total)
T1124 000:831 JLINK_WriteReg(R7, 0x00000000)  returns 0x00 (0000ms, 0384ms total)
T1124 000:831 JLINK_WriteReg(R8, 0x00000000)  returns 0x00 (0000ms, 0384ms total)
T1124 000:831 JLINK_WriteReg(R9, 0x20000124)  returns 0x00 (0000ms, 0384ms total)
T1124 000:831 JLINK_WriteReg(R10, 0x00000000)  returns 0x00 (0000ms, 0384ms total)
T1124 000:831 JLINK_WriteReg(R11, 0x00000000)  returns 0x00 (0000ms, 0384ms total)
T1124 000:831 JLINK_WriteReg(R12, 0x00000000)  returns 0x00 (0000ms, 0384ms total)
T1124 000:831 JLINK_WriteReg(R13, 0x20000800)  returns 0x00 (0000ms, 0384ms total)
T1124 000:831 JLINK_WriteReg(R14, 0x20000001)  returns 0x00 (0000ms, 0384ms total)
T1124 000:831 JLINK_WriteReg(R15, 0x20000070)  returns 0x00 (0000ms, 0384ms total)
T1124 000:831 JLINK_WriteReg(XPSR, 0x01000000)  returns 0x00 (0000ms, 0384ms total)
T1124 000:831 JLINK_WriteReg(MSP, 0x20000800)  returns 0x00 (0000ms, 0384ms total)
T1124 000:831 JLINK_WriteReg(PSP, 0x20000800)  returns 0x00 (0000ms, 0384ms total)
T1124 000:831 JLINK_WriteReg(CFBP, 0x00000000)  returns 0x00 (0000ms, 0384ms total)
T1124 000:831 JLINK_SetBPEx(Addr = 0x20000000, Type = 0xFFFFFFF2)  returns 0x00000007 (0000ms, 0384ms total)
T1124 000:831 JLINK_Go() (0003ms, 0387ms total)
T1124 000:834 JLINK_IsHalted()  returns FALSE (0001ms, 0388ms total)
T1124 000:953 JLINK_IsHalted() -- CPU_ReadMem(2 bytes @ 0x20000000)  returns TRUE (0007ms, 0394ms total)
T1124 000:960 JLINK_ReadReg(R15)  returns 0x20000000 (0000ms, 0387ms total)
T1124 000:960 JLINK_ClrBPEx(BPHandle = 0x00000007)  returns 0x00 (0000ms, 0387ms total)
T1124 000:960 JLINK_ReadReg(R0)  returns 0x00000000 (0000ms, 0387ms total)
T1124 000:961 JLINK_WriteReg(R0, 0x00018000)  returns 0x00 (0000ms, 0387ms total)
T1124 000:961 JLINK_WriteReg(R1, 0x00004000)  returns 0x00 (0000ms, 0387ms total)
T1124 000:961 JLINK_WriteReg(R2, 0x000000FF)  returns 0x00 (0000ms, 0387ms total)
T1124 000:961 JLINK_WriteReg(R3, 0x00000000)  returns 0x00 (0000ms, 0387ms total)
T1124 000:961 JLINK_WriteReg(R4, 0x00000000)  returns 0x00 (0000ms, 0387ms total)
T1124 000:961 JLINK_WriteReg(R5, 0x00000000)  returns 0x00 (0000ms, 0387ms total)
T1124 000:961 JLINK_WriteReg(R6, 0x00000000)  returns 0x00 (0000ms, 0387ms total)
T1124 000:961 JLINK_WriteReg(R7, 0x00000000)  returns 0x00 (0000ms, 0387ms total)
T1124 000:961 JLINK_WriteReg(R8, 0x00000000)  returns 0x00 (0000ms, 0387ms total)
T1124 000:961 JLINK_WriteReg(R9, 0x20000124)  returns 0x00 (0000ms, 0387ms total)
T1124 000:961 JLINK_WriteReg(R10, 0x00000000)  returns 0x00 (0000ms, 0387ms total)
T1124 000:961 JLINK_WriteReg(R11, 0x00000000)  returns 0x00 (0000ms, 0387ms total)
T1124 000:961 JLINK_WriteReg(R12, 0x00000000)  returns 0x00 (0000ms, 0387ms total)
T1124 000:961 JLINK_WriteReg(R13, 0x20000800)  returns 0x00 (0000ms, 0387ms total)
T1124 000:961 JLINK_WriteReg(R14, 0x20000001)  returns 0x00 (0000ms, 0387ms total)
T1124 000:961 JLINK_WriteReg(R15, 0x20000020)  returns 0x00 (0000ms, 0387ms total)
T1124 000:961 JLINK_WriteReg(XPSR, 0x01000000)  returns 0x00 (0000ms, 0387ms total)
T1124 000:961 JLINK_WriteReg(MSP, 0x20000800)  returns 0x00 (0000ms, 0387ms total)
T1124 000:961 JLINK_WriteReg(PSP, 0x20000800)  returns 0x00 (0000ms, 0387ms total)
T1124 000:961 JLINK_WriteReg(CFBP, 0x00000000)  returns 0x00 (0000ms, 0387ms total)
T1124 000:961 JLINK_SetBPEx(Addr = 0x20000000, Type = 0xFFFFFFF2)  returns 0x00000008 (0000ms, 0387ms total)
T1124 000:961 JLINK_Go() (0003ms, 0390ms total)
T1124 000:964 JLINK_IsHalted() -- CPU_ReadMem(2 bytes @ 0x20000000)  returns TRUE (0007ms, 0397ms total)
T1124 000:971 JLINK_ReadReg(R15)  returns 0x20000000 (0000ms, 0390ms total)
T1124 000:971 JLINK_ClrBPEx(BPHandle = 0x00000008)  returns 0x00 (0000ms, 0390ms total)
T1124 000:971 JLINK_ReadReg(R0)  returns 0x00000001 (0000ms, 0390ms total)
T1124 000:971 JLINK_WriteReg(R0, 0x00018000)  returns 0x00 (0000ms, 0390ms total)
T1124 000:971 JLINK_WriteReg(R1, 0x00004000)  returns 0x00 (0000ms, 0390ms total)
T1124 000:971 JLINK_WriteReg(R2, 0x000000FF)  returns 0x00 (0000ms, 0390ms total)
T1124 000:971 JLINK_WriteReg(R3, 0x00000000)  returns 0x00 (0000ms, 0390ms total)
T1124 000:971 JLINK_WriteReg(R4, 0x00000000)  returns 0x00 (0000ms, 0390ms total)
T1124 000:971 JLINK_WriteReg(R5, 0x00000000)  returns 0x00 (0000ms, 0390ms total)
T1124 000:971 JLINK_WriteReg(R6, 0x00000000)  returns 0x00 (0000ms, 0390ms total)
T1124 000:971 JLINK_WriteReg(R7, 0x00000000)  returns 0x00 (0000ms, 0390ms total)
T1124 000:971 JLINK_WriteReg(R8, 0x00000000)  returns 0x00 (0000ms, 0390ms total)
T1124 000:971 JLINK_WriteReg(R9, 0x20000124)  returns 0x00 (0000ms, 0390ms total)
T1124 000:971 JLINK_WriteReg(R10, 0x00000000)  returns 0x00 (0000ms, 0390ms total)
T1124 000:971 JLINK_WriteReg(R11, 0x00000000)  returns 0x00 (0000ms, 0390ms total)
T1124 000:971 JLINK_WriteReg(R12, 0x00000000)  returns 0x00 (0000ms, 0390ms total)
T1124 000:971 JLINK_WriteReg(R13, 0x20000800)  returns 0x00 (0000ms, 0390ms total)
T1124 000:971 JLINK_WriteReg(R14, 0x20000001)  returns 0x00 (0000ms, 0390ms total)
T1124 000:971 JLINK_WriteReg(R15, 0x20000070)  returns 0x00 (0000ms, 0390ms total)
T1124 000:971 JLINK_WriteReg(XPSR, 0x01000000)  returns 0x00 (0000ms, 0390ms total)
T1124 000:971 JLINK_WriteReg(MSP, 0x20000800)  returns 0x00 (0000ms, 0390ms total)
T1124 000:971 JLINK_WriteReg(PSP, 0x20000800)  returns 0x00 (0000ms, 0390ms total)
T1124 000:971 JLINK_WriteReg(CFBP, 0x00000000)  returns 0x00 (0000ms, 0390ms total)
T1124 000:971 JLINK_SetBPEx(Addr = 0x20000000, Type = 0xFFFFFFF2)  returns 0x00000009 (0000ms, 0390ms total)
T1124 000:971 JLINK_Go() (0003ms, 0393ms total)
T1124 000:974 JLINK_IsHalted()  returns FALSE (0001ms, 0394ms total)
T1124 001:056 JLINK_IsHalted() -- CPU_ReadMem(2 bytes @ 0x20000000)  returns TRUE (0007ms, 0400ms total)
T1124 001:063 JLINK_ReadReg(R15)  returns 0x20000000 (0000ms, 0393ms total)
T1124 001:063 JLINK_ClrBPEx(BPHandle = 0x00000009)  returns 0x00 (0000ms, 0393ms total)
T1124 001:063 JLINK_ReadReg(R0)  returns 0x00000000 (0000ms, 0393ms total)
T1124 001:064 JLINK_WriteReg(R0, 0x0001C000)  returns 0x00 (0000ms, 0393ms total)
T1124 001:064 JLINK_WriteReg(R1, 0x00004000)  returns 0x00 (0000ms, 0393ms total)
T1124 001:064 JLINK_WriteReg(R2, 0x000000FF)  returns 0x00 (0000ms, 0393ms total)
T1124 001:064 JLINK_WriteReg(R3, 0x00000000)  returns 0x00 (0000ms, 0393ms total)
T1124 001:064 JLINK_WriteReg(R4, 0x00000000)  returns 0x00 (0000ms, 0393ms total)
T1124 001:064 JLINK_WriteReg(R5, 0x00000000)  returns 0x00 (0000ms, 0393ms total)
T1124 001:064 JLINK_WriteReg(R6, 0x00000000)  returns 0x00 (0000ms, 0393ms total)
T1124 001:064 JLINK_WriteReg(R7, 0x00000000)  returns 0x00 (0000ms, 0393ms total)
T1124 001:064 JLINK_WriteReg(R8, 0x00000000)  returns 0x00 (0000ms, 0393ms total)
T1124 001:064 JLINK_WriteReg(R9, 0x20000124)  returns 0x00 (0000ms, 0393ms total)
T1124 001:064 JLINK_WriteReg(R10, 0x00000000)  returns 0x00 (0000ms, 0393ms total)
T1124 001:064 JLINK_WriteReg(R11, 0x00000000)  returns 0x00 (0000ms, 0393ms total)
T1124 001:064 JLINK_WriteReg(R12, 0x00000000)  returns 0x00 (0000ms, 0393ms total)
T1124 001:064 JLINK_WriteReg(R13, 0x20000800)  returns 0x00 (0000ms, 0393ms total)
T1124 001:064 JLINK_WriteReg(R14, 0x20000001)  returns 0x00 (0000ms, 0393ms total)
T1124 001:064 JLINK_WriteReg(R15, 0x20000020)  returns 0x00 (0000ms, 0393ms total)
T1124 001:064 JLINK_WriteReg(XPSR, 0x01000000)  returns 0x00 (0000ms, 0393ms total)
T1124 001:064 JLINK_WriteReg(MSP, 0x20000800)  returns 0x00 (0000ms, 0393ms total)
T1124 001:064 JLINK_WriteReg(PSP, 0x20000800)  returns 0x00 (0000ms, 0393ms total)
T1124 001:064 JLINK_WriteReg(CFBP, 0x00000000)  returns 0x00 (0000ms, 0393ms total)
T1124 001:064 JLINK_SetBPEx(Addr = 0x20000000, Type = 0xFFFFFFF2)  returns 0x0000000A (0000ms, 0393ms total)
T1124 001:064 JLINK_Go() (0002ms, 0395ms total)
T1124 001:066 JLINK_IsHalted() -- CPU_ReadMem(2 bytes @ 0x20000000)  returns TRUE (0008ms, 0403ms total)
T1124 001:074 JLINK_ReadReg(R15)  returns 0x20000000 (0000ms, 0395ms total)
T1124 001:074 JLINK_ClrBPEx(BPHandle = 0x0000000A)  returns 0x00 (0000ms, 0395ms total)
T1124 001:074 JLINK_ReadReg(R0)  returns 0x00000001 (0000ms, 0395ms total)
T1124 001:074 JLINK_WriteReg(R0, 0x0001C000)  returns 0x00 (0000ms, 0395ms total)
T1124 001:074 JLINK_WriteReg(R1, 0x00004000)  returns 0x00 (0000ms, 0395ms total)
T1124 001:074 JLINK_WriteReg(R2, 0x000000FF)  returns 0x00 (0000ms, 0395ms total)
T1124 001:074 JLINK_WriteReg(R3, 0x00000000)  returns 0x00 (0000ms, 0395ms total)
T1124 001:074 JLINK_WriteReg(R4, 0x00000000)  returns 0x00 (0000ms, 0395ms total)
T1124 001:074 JLINK_WriteReg(R5, 0x00000000)  returns 0x00 (0000ms, 0395ms total)
T1124 001:074 JLINK_WriteReg(R6, 0x00000000)  returns 0x00 (0000ms, 0395ms total)
T1124 001:074 JLINK_WriteReg(R7, 0x00000000)  returns 0x00 (0000ms, 0395ms total)
T1124 001:074 JLINK_WriteReg(R8, 0x00000000)  returns 0x00 (0000ms, 0395ms total)
T1124 001:074 JLINK_WriteReg(R9, 0x20000124)  returns 0x00 (0000ms, 0395ms total)
T1124 001:074 JLINK_WriteReg(R10, 0x00000000)  returns 0x00 (0000ms, 0395ms total)
T1124 001:074 JLINK_WriteReg(R11, 0x00000000)  returns 0x00 (0000ms, 0395ms total)
T1124 001:074 JLINK_WriteReg(R12, 0x00000000)  returns 0x00 (0000ms, 0395ms total)
T1124 001:074 JLINK_WriteReg(R13, 0x20000800)  returns 0x00 (0000ms, 0395ms total)
T1124 001:074 JLINK_WriteReg(R14, 0x20000001)  returns 0x00 (0000ms, 0395ms total)
T1124 001:074 JLINK_WriteReg(R15, 0x20000070)  returns 0x00 (0000ms, 0395ms total)
T1124 001:074 JLINK_WriteReg(XPSR, 0x01000000)  returns 0x00 (0000ms, 0395ms total)
T1124 001:074 JLINK_WriteReg(MSP, 0x20000800)  returns 0x00 (0000ms, 0395ms total)
T1124 001:074 JLINK_WriteReg(PSP, 0x20000800)  returns 0x00 (0000ms, 0395ms total)
T1124 001:074 JLINK_WriteReg(CFBP, 0x00000000)  returns 0x00 (0000ms, 0395ms total)
T1124 001:074 JLINK_SetBPEx(Addr = 0x20000000, Type = 0xFFFFFFF2)  returns 0x0000000B (0000ms, 0395ms total)
T1124 001:074 JLINK_Go() (0002ms, 0397ms total)
T1124 001:076 JLINK_IsHalted()  returns FALSE (0001ms, 0398ms total)
T1124 001:161 JLINK_IsHalted() -- CPU_ReadMem(2 bytes @ 0x20000000)  returns TRUE (0007ms, 0404ms total)
T1124 001:168 JLINK_ReadReg(R15)  returns 0x20000000 (0000ms, 0397ms total)
T1124 001:168 JLINK_ClrBPEx(BPHandle = 0x0000000B)  returns 0x00 (0000ms, 0397ms total)
T1124 001:168 JLINK_ReadReg(R0)  returns 0x00000000 (0000ms, 0397ms total)
T1124 001:169 JLINK_WriteReg(R0, 0x00020000)  returns 0x00 (0000ms, 0397ms total)
T1124 001:169 JLINK_WriteReg(R1, 0x00004000)  returns 0x00 (0000ms, 0397ms total)
T1124 001:169 JLINK_WriteReg(R2, 0x000000FF)  returns 0x00 (0000ms, 0397ms total)
T1124 001:169 JLINK_WriteReg(R3, 0x00000000)  returns 0x00 (0000ms, 0397ms total)
T1124 001:169 JLINK_WriteReg(R4, 0x00000000)  returns 0x00 (0000ms, 0397ms total)
T1124 001:169 JLINK_WriteReg(R5, 0x00000000)  returns 0x00 (0000ms, 0397ms total)
T1124 001:169 JLINK_WriteReg(R6, 0x00000000)  returns 0x00 (0000ms, 0397ms total)
T1124 001:169 JLINK_WriteReg(R7, 0x00000000)  returns 0x00 (0000ms, 0397ms total)
T1124 001:169 JLINK_WriteReg(R8, 0x00000000)  returns 0x00 (0000ms, 0397ms total)
T1124 001:169 JLINK_WriteReg(R9, 0x20000124)  returns 0x00 (0000ms, 0397ms total)
T1124 001:169 JLINK_WriteReg(R10, 0x00000000)  returns 0x00 (0000ms, 0397ms total)
T1124 001:169 JLINK_WriteReg(R11, 0x00000000)  returns 0x00 (0000ms, 0397ms total)
T1124 001:169 JLINK_WriteReg(R12, 0x00000000)  returns 0x00 (0000ms, 0397ms total)
T1124 001:169 JLINK_WriteReg(R13, 0x20000800)  returns 0x00 (0000ms, 0397ms total)
T1124 001:169 JLINK_WriteReg(R14, 0x20000001)  returns 0x00 (0000ms, 0397ms total)
T1124 001:170 JLINK_WriteReg(R15, 0x20000020)  returns 0x00 (0000ms, 0398ms total)
T1124 001:170 JLINK_WriteReg(XPSR, 0x01000000)  returns 0x00 (0000ms, 0398ms total)
T1124 001:170 JLINK_WriteReg(MSP, 0x20000800)  returns 0x00 (0000ms, 0398ms total)
T1124 001:170 JLINK_WriteReg(PSP, 0x20000800)  returns 0x00 (0000ms, 0398ms total)
T1124 001:170 JLINK_WriteReg(CFBP, 0x00000000)  returns 0x00 (0000ms, 0398ms total)
T1124 001:170 JLINK_SetBPEx(Addr = 0x20000000, Type = 0xFFFFFFF2)  returns 0x0000000C (0000ms, 0398ms total)
T1124 001:170 JLINK_Go() (0002ms, 0400ms total)
T1124 001:172 JLINK_IsHalted() -- CPU_ReadMem(2 bytes @ 0x20000000)  returns TRUE (0008ms, 0408ms total)
T1124 001:180 JLINK_ReadReg(R15)  returns 0x20000000 (0000ms, 0400ms total)
T1124 001:180 JLINK_ClrBPEx(BPHandle = 0x0000000C)  returns 0x00 (0000ms, 0400ms total)
T1124 001:180 JLINK_ReadReg(R0)  returns 0x00000001 (0000ms, 0400ms total)
T1124 001:180 JLINK_WriteReg(R0, 0x00020000)  returns 0x00 (0000ms, 0400ms total)
T1124 001:180 JLINK_WriteReg(R1, 0x00004000)  returns 0x00 (0000ms, 0400ms total)
T1124 001:180 JLINK_WriteReg(R2, 0x000000FF)  returns 0x00 (0000ms, 0400ms total)
T1124 001:180 JLINK_WriteReg(R3, 0x00000000)  returns 0x00 (0000ms, 0400ms total)
T1124 001:180 JLINK_WriteReg(R4, 0x00000000)  returns 0x00 (0000ms, 0400ms total)
T1124 001:180 JLINK_WriteReg(R5, 0x00000000)  returns 0x00 (0000ms, 0400ms total)
T1124 001:180 JLINK_WriteReg(R6, 0x00000000)  returns 0x00 (0000ms, 0400ms total)
T1124 001:180 JLINK_WriteReg(R7, 0x00000000)  returns 0x00 (0000ms, 0400ms total)
T1124 001:180 JLINK_WriteReg(R8, 0x00000000)  returns 0x00 (0000ms, 0400ms total)
T1124 001:180 JLINK_WriteReg(R9, 0x20000124)  returns 0x00 (0000ms, 0400ms total)
T1124 001:180 JLINK_WriteReg(R10, 0x00000000)  returns 0x00 (0000ms, 0400ms total)
T1124 001:180 JLINK_WriteReg(R11, 0x00000000)  returns 0x00 (0000ms, 0400ms total)
T1124 001:180 JLINK_WriteReg(R12, 0x00000000)  returns 0x00 (0000ms, 0400ms total)
T1124 001:180 JLINK_WriteReg(R13, 0x20000800)  returns 0x00 (0000ms, 0400ms total)
T1124 001:180 JLINK_WriteReg(R14, 0x20000001)  returns 0x00 (0000ms, 0400ms total)
T1124 001:180 JLINK_WriteReg(R15, 0x20000070)  returns 0x00 (0000ms, 0400ms total)
T1124 001:180 JLINK_WriteReg(XPSR, 0x01000000)  returns 0x00 (0000ms, 0400ms total)
T1124 001:180 JLINK_WriteReg(MSP, 0x20000800)  returns 0x00 (0000ms, 0400ms total)
T1124 001:180 JLINK_WriteReg(PSP, 0x20000800)  returns 0x00 (0000ms, 0400ms total)
T1124 001:180 JLINK_WriteReg(CFBP, 0x00000000)  returns 0x00 (0000ms, 0400ms total)
T1124 001:180 JLINK_SetBPEx(Addr = 0x20000000, Type = 0xFFFFFFF2)  returns 0x0000000D (0000ms, 0400ms total)
T1124 001:180 JLINK_Go() (0003ms, 0403ms total)
T1124 001:183 JLINK_IsHalted()  returns FALSE (0001ms, 0404ms total)
T1124 001:263 JLINK_IsHalted() -- CPU_ReadMem(2 bytes @ 0x20000000)  returns TRUE (0007ms, 0410ms total)
T1124 001:270 JLINK_ReadReg(R15)  returns 0x20000000 (0000ms, 0403ms total)
T1124 001:270 JLINK_ClrBPEx(BPHandle = 0x0000000D)  returns 0x00 (0000ms, 0403ms total)
T1124 001:270 JLINK_ReadReg(R0)  returns 0x00000000 (0000ms, 0403ms total)
T1124 001:270 JLINK_WriteReg(R0, 0x00024000)  returns 0x00 (0000ms, 0403ms total)
T1124 001:270 JLINK_WriteReg(R1, 0x00004000)  returns 0x00 (0000ms, 0403ms total)
T1124 001:270 JLINK_WriteReg(R2, 0x000000FF)  returns 0x00 (0001ms, 0404ms total)
T1124 001:271 JLINK_WriteReg(R3, 0x00000000)  returns 0x00 (0000ms, 0404ms total)
T1124 001:271 JLINK_WriteReg(R4, 0x00000000)  returns 0x00 (0000ms, 0404ms total)
T1124 001:271 JLINK_WriteReg(R5, 0x00000000)  returns 0x00 (0000ms, 0404ms total)
T1124 001:271 JLINK_WriteReg(R6, 0x00000000)  returns 0x00 (0000ms, 0404ms total)
T1124 001:271 JLINK_WriteReg(R7, 0x00000000)  returns 0x00 (0000ms, 0404ms total)
T1124 001:271 JLINK_WriteReg(R8, 0x00000000)  returns 0x00 (0000ms, 0404ms total)
T1124 001:271 JLINK_WriteReg(R9, 0x20000124)  returns 0x00 (0000ms, 0404ms total)
T1124 001:271 JLINK_WriteReg(R10, 0x00000000)  returns 0x00 (0000ms, 0404ms total)
T1124 001:271 JLINK_WriteReg(R11, 0x00000000)  returns 0x00 (0000ms, 0404ms total)
T1124 001:271 JLINK_WriteReg(R12, 0x00000000)  returns 0x00 (0000ms, 0404ms total)
T1124 001:271 JLINK_WriteReg(R13, 0x20000800)  returns 0x00 (0000ms, 0404ms total)
T1124 001:271 JLINK_WriteReg(R14, 0x20000001)  returns 0x00 (0000ms, 0404ms total)
T1124 001:271 JLINK_WriteReg(R15, 0x20000020)  returns 0x00 (0000ms, 0404ms total)
T1124 001:271 JLINK_WriteReg(XPSR, 0x01000000)  returns 0x00 (0000ms, 0404ms total)
T1124 001:271 JLINK_WriteReg(MSP, 0x20000800)  returns 0x00 (0000ms, 0404ms total)
T1124 001:271 JLINK_WriteReg(PSP, 0x20000800)  returns 0x00 (0000ms, 0404ms total)
T1124 001:271 JLINK_WriteReg(CFBP, 0x00000000)  returns 0x00 (0000ms, 0404ms total)
T1124 001:271 JLINK_SetBPEx(Addr = 0x20000000, Type = 0xFFFFFFF2)  returns 0x0000000E (0000ms, 0404ms total)
T1124 001:271 JLINK_Go() (0001ms, 0405ms total)
T1124 001:272 JLINK_IsHalted() -- CPU_ReadMem(2 bytes @ 0x20000000)  returns TRUE (0008ms, 0413ms total)
T1124 001:280 JLINK_ReadReg(R15)  returns 0x20000000 (0000ms, 0405ms total)
T1124 001:280 JLINK_ClrBPEx(BPHandle = 0x0000000E)  returns 0x00 (0000ms, 0405ms total)
T1124 001:280 JLINK_ReadReg(R0)  returns 0x00000001 (0000ms, 0405ms total)
T1124 001:280 JLINK_WriteReg(R0, 0x00024000)  returns 0x00 (0000ms, 0405ms total)
T1124 001:280 JLINK_WriteReg(R1, 0x00004000)  returns 0x00 (0000ms, 0405ms total)
T1124 001:280 JLINK_WriteReg(R2, 0x000000FF)  returns 0x00 (0000ms, 0405ms total)
T1124 001:280 JLINK_WriteReg(R3, 0x00000000)  returns 0x00 (0000ms, 0405ms total)
T1124 001:280 JLINK_WriteReg(R4, 0x00000000)  returns 0x00 (0000ms, 0405ms total)
T1124 001:280 JLINK_WriteReg(R5, 0x00000000)  returns 0x00 (0000ms, 0405ms total)
T1124 001:280 JLINK_WriteReg(R6, 0x00000000)  returns 0x00 (0000ms, 0405ms total)
T1124 001:280 JLINK_WriteReg(R7, 0x00000000)  returns 0x00 (0000ms, 0405ms total)
T1124 001:280 JLINK_WriteReg(R8, 0x00000000)  returns 0x00 (0000ms, 0405ms total)
T1124 001:280 JLINK_WriteReg(R9, 0x20000124)  returns 0x00 (0000ms, 0405ms total)
T1124 001:280 JLINK_WriteReg(R10, 0x00000000)  returns 0x00 (0000ms, 0405ms total)
T1124 001:280 JLINK_WriteReg(R11, 0x00000000)  returns 0x00 (0000ms, 0405ms total)
T1124 001:280 JLINK_WriteReg(R12, 0x00000000)  returns 0x00 (0000ms, 0405ms total)
T1124 001:280 JLINK_WriteReg(R13, 0x20000800)  returns 0x00 (0000ms, 0405ms total)
T1124 001:280 JLINK_WriteReg(R14, 0x20000001)  returns 0x00 (0000ms, 0405ms total)
T1124 001:280 JLINK_WriteReg(R15, 0x20000070)  returns 0x00 (0000ms, 0405ms total)
T1124 001:280 JLINK_WriteReg(XPSR, 0x01000000)  returns 0x00 (0000ms, 0405ms total)
T1124 001:280 JLINK_WriteReg(MSP, 0x20000800)  returns 0x00 (0000ms, 0405ms total)
T1124 001:280 JLINK_WriteReg(PSP, 0x20000800)  returns 0x00 (0000ms, 0405ms total)
T1124 001:280 JLINK_WriteReg(CFBP, 0x00000000)  returns 0x00 (0000ms, 0405ms total)
T1124 001:280 JLINK_SetBPEx(Addr = 0x20000000, Type = 0xFFFFFFF2)  returns 0x0000000F (0000ms, 0405ms total)
T1124 001:280 JLINK_Go() (0002ms, 0407ms total)
T1124 001:283 JLINK_IsHalted()  returns FALSE (0001ms, 0409ms total)
T1124 001:363 JLINK_IsHalted() -- CPU_ReadMem(2 bytes @ 0x20000000)  returns TRUE (0007ms, 0415ms total)
T1124 001:370 JLINK_ReadReg(R15)  returns 0x20000000 (0000ms, 0408ms total)
T1124 001:370 JLINK_ClrBPEx(BPHandle = 0x0000000F)  returns 0x00 (0000ms, 0408ms total)
T1124 001:370 JLINK_ReadReg(R0)  returns 0x00000000 (0000ms, 0408ms total)
T1124 001:371 JLINK_WriteReg(R0, 0x00000001)  returns 0x00 (0000ms, 0408ms total)
T1124 001:371 JLINK_WriteReg(R1, 0x00004000)  returns 0x00 (0000ms, 0408ms total)
T1124 001:371 JLINK_WriteReg(R2, 0x000000FF)  returns 0x00 (0000ms, 0408ms total)
T1124 001:371 JLINK_WriteReg(R3, 0x00000000)  returns 0x00 (0000ms, 0408ms total)
T1124 001:371 JLINK_WriteReg(R4, 0x00000000)  returns 0x00 (0000ms, 0408ms total)
T1124 001:371 JLINK_WriteReg(R5, 0x00000000)  returns 0x00 (0000ms, 0408ms total)
T1124 001:371 JLINK_WriteReg(R6, 0x00000000)  returns 0x00 (0000ms, 0408ms total)
T1124 001:371 JLINK_WriteReg(R7, 0x00000000)  returns 0x00 (0000ms, 0408ms total)
T1124 001:371 JLINK_WriteReg(R8, 0x00000000)  returns 0x00 (0000ms, 0408ms total)
T1124 001:371 JLINK_WriteReg(R9, 0x20000124)  returns 0x00 (0000ms, 0408ms total)
T1124 001:371 JLINK_WriteReg(R10, 0x00000000)  returns 0x00 (0000ms, 0408ms total)
T1124 001:371 JLINK_WriteReg(R11, 0x00000000)  returns 0x00 (0000ms, 0408ms total)
T1124 001:371 JLINK_WriteReg(R12, 0x00000000)  returns 0x00 (0000ms, 0408ms total)
T1124 001:371 JLINK_WriteReg(R13, 0x20000800)  returns 0x00 (0000ms, 0408ms total)
T1124 001:371 JLINK_WriteReg(R14, 0x20000001)  returns 0x00 (0000ms, 0408ms total)
T1124 001:371 JLINK_WriteReg(R15, 0x20000052)  returns 0x00 (0000ms, 0408ms total)
T1124 001:371 JLINK_WriteReg(XPSR, 0x01000000)  returns 0x00 (0000ms, 0408ms total)
T1124 001:371 JLINK_WriteReg(MSP, 0x20000800)  returns 0x00 (0000ms, 0408ms total)
T1124 001:371 JLINK_WriteReg(PSP, 0x20000800)  returns 0x00 (0000ms, 0408ms total)
T1124 001:371 JLINK_WriteReg(CFBP, 0x00000000)  returns 0x00 (0000ms, 0408ms total)
T1124 001:371 JLINK_SetBPEx(Addr = 0x20000000, Type = 0xFFFFFFF2)  returns 0x00000010 (0000ms, 0408ms total)
T1124 001:371 JLINK_Go() (0003ms, 0411ms total)
T1124 001:374 JLINK_IsHalted() -- CPU_ReadMem(2 bytes @ 0x20000000)  returns TRUE (0007ms, 0418ms total)
T1124 001:381 JLINK_ReadReg(R15)  returns 0x20000000 (0000ms, 0411ms total)
T1124 001:381 JLINK_ClrBPEx(BPHandle = 0x00000010)  returns 0x00 (0000ms, 0411ms total)
T1124 001:381 JLINK_ReadReg(R0)  returns 0x00000000 (0000ms, 0411ms total)
T1124 001:441 JLINK_WriteMem(0x20000000, 0x0128 Bytes, ...) -- Data:  00 BE 0A E0 0D 78 2D 06 68 40 08 24 40 00 00 D3 ... -- CPU_WriteMem(296 bytes @ 0x20000000)  returns 0x128 (0004ms, 0415ms total)
T1124 001:445 JLINK_WriteReg(R0, 0x00000000)  returns 0x00 (0000ms, 0415ms total)
T1124 001:445 JLINK_WriteReg(R1, 0x00F42400)  returns 0x00 (0000ms, 0415ms total)
T1124 001:445 JLINK_WriteReg(R2, 0x00000002)  returns 0x00 (0000ms, 0415ms total)
T1124 001:445 JLINK_WriteReg(R3, 0x00000000)  returns 0x00 (0000ms, 0415ms total)
T1124 001:445 JLINK_WriteReg(R4, 0x00000000)  returns 0x00 (0000ms, 0415ms total)
T1124 001:445 JLINK_WriteReg(R5, 0x00000000)  returns 0x00 (0000ms, 0415ms total)
T1124 001:445 JLINK_WriteReg(R6, 0x00000000)  returns 0x00 (0000ms, 0415ms total)
T1124 001:445 JLINK_WriteReg(R7, 0x00000000)  returns 0x00 (0000ms, 0415ms total)
T1124 001:445 JLINK_WriteReg(R8, 0x00000000)  returns 0x00 (0000ms, 0415ms total)
T1124 001:445 JLINK_WriteReg(R9, 0x20000124)  returns 0x00 (0000ms, 0415ms total)
T1124 001:445 JLINK_WriteReg(R10, 0x00000000)  returns 0x00 (0000ms, 0415ms total)
T1124 001:445 JLINK_WriteReg(R11, 0x00000000)  returns 0x00 (0000ms, 0415ms total)
T1124 001:445 JLINK_WriteReg(R12, 0x00000000)  returns 0x00 (0000ms, 0415ms total)
T1124 001:445 JLINK_WriteReg(R13, 0x20000800)  returns 0x00 (0000ms, 0415ms total)
T1124 001:445 JLINK_WriteReg(R14, 0x20000001)  returns 0x00 (0000ms, 0415ms total)
T1124 001:445 JLINK_WriteReg(R15, 0x20000038)  returns 0x00 (0000ms, 0415ms total)
T1124 001:445 JLINK_WriteReg(XPSR, 0x01000000)  returns 0x00 (0000ms, 0415ms total)
T1124 001:445 JLINK_WriteReg(MSP, 0x20000800)  returns 0x00 (0000ms, 0415ms total)
T1124 001:445 JLINK_WriteReg(PSP, 0x20000800)  returns 0x00 (0000ms, 0415ms total)
T1124 001:445 JLINK_WriteReg(CFBP, 0x00000000)  returns 0x00 (0000ms, 0415ms total)
T1124 001:445 JLINK_SetBPEx(Addr = 0x20000000, Type = 0xFFFFFFF2) -- CPU_ReadMem(4 bytes @ 0x20000000) -- CPU_WriteMem(4 bytes @ 0x20000000) -- CPU_ReadMem(4 bytes @ 0x20000000) -- CPU_WriteMem(4 bytes @ 0x20000000) -- CPU_ReadMem(2 bytes @ 0x20000000)  returns 0x00000011 (0006ms, 0421ms total)
T1124 001:451 JLINK_Go() -- CPU_WriteMem(2 bytes @ 0x20000000) (0004ms, 0425ms total)
T1124 001:455 JLINK_IsHalted() -- CPU_ReadMem(2 bytes @ 0x20000000)  returns TRUE (0007ms, 0432ms total)
T1124 001:462 JLINK_ReadReg(R15)  returns 0x20000000 (0000ms, 0425ms total)
T1124 001:462 JLINK_ClrBPEx(BPHandle = 0x00000011)  returns 0x00 (0000ms, 0425ms total)
T1124 001:462 JLINK_ReadReg(R0)  returns 0x00000000 (0000ms, 0425ms total)
T1124 001:463 JLINK_WriteMem(0x20000128, 0x0400 Bytes, ...) -- Data:  28 69 00 20 01 D2 00 00 15 D2 00 00 17 D2 00 00 ... -- CPU_WriteMem(1024 bytes @ 0x20000128)  returns 0x400 (0011ms, 0436ms total)
T1124 001:474 JLINK_WriteReg(R0, 0x0000D000)  returns 0x00 (0000ms, 0436ms total)
T1124 001:474 JLINK_WriteReg(R1, 0x00000400)  returns 0x00 (0000ms, 0436ms total)
T1124 001:474 JLINK_WriteReg(R2, 0x20000128)  returns 0x00 (0000ms, 0436ms total)
T1124 001:474 JLINK_WriteReg(R3, 0x00000000)  returns 0x00 (0000ms, 0436ms total)
T1124 001:474 JLINK_WriteReg(R4, 0x00000000)  returns 0x00 (0000ms, 0436ms total)
T1124 001:474 JLINK_WriteReg(R5, 0x00000000)  returns 0x00 (0000ms, 0436ms total)
T1124 001:474 JLINK_WriteReg(R6, 0x00000000)  returns 0x00 (0000ms, 0436ms total)
T1124 001:474 JLINK_WriteReg(R7, 0x00000000)  returns 0x00 (0000ms, 0436ms total)
T1124 001:474 JLINK_WriteReg(R8, 0x00000000)  returns 0x00 (0000ms, 0436ms total)
T1124 001:474 JLINK_WriteReg(R9, 0x20000124)  returns 0x00 (0000ms, 0436ms total)
T1124 001:474 JLINK_WriteReg(R10, 0x00000000)  returns 0x00 (0000ms, 0436ms total)
T1124 001:474 JLINK_WriteReg(R11, 0x00000000)  returns 0x00 (0000ms, 0436ms total)
T1124 001:474 JLINK_WriteReg(R12, 0x00000000)  returns 0x00 (0000ms, 0436ms total)
T1124 001:474 JLINK_WriteReg(R13, 0x20000800)  returns 0x00 (0000ms, 0436ms total)
T1124 001:474 JLINK_WriteReg(R14, 0x20000001)  returns 0x00 (0000ms, 0436ms total)
T1124 001:474 JLINK_WriteReg(R15, 0x20000092)  returns 0x00 (0000ms, 0436ms total)
T1124 001:474 JLINK_WriteReg(XPSR, 0x01000000)  returns 0x00 (0000ms, 0436ms total)
T1124 001:474 JLINK_WriteReg(MSP, 0x20000800)  returns 0x00 (0000ms, 0436ms total)
T1124 001:474 JLINK_WriteReg(PSP, 0x20000800)  returns 0x00 (0000ms, 0436ms total)
T1124 001:474 JLINK_WriteReg(CFBP, 0x00000000)  returns 0x00 (0000ms, 0436ms total)
T1124 001:474 JLINK_SetBPEx(Addr = 0x20000000, Type = 0xFFFFFFF2)  returns 0x00000012 (0000ms, 0436ms total)
T1124 001:474 JLINK_Go() (0004ms, 0440ms total)
T1124 001:478 JLINK_IsHalted()  returns FALSE (0001ms, 0441ms total)
T1124 001:603 JLINK_IsHalted() -- CPU_ReadMem(2 bytes @ 0x20000000)  returns TRUE (0006ms, 0446ms total)
T1124 001:609 JLINK_ReadReg(R15)  returns 0x20000000 (0000ms, 0440ms total)
T1124 001:609 JLINK_ClrBPEx(BPHandle = 0x00000012)  returns 0x00 (0000ms, 0440ms total)
T1124 001:609 JLINK_ReadReg(R0)  returns 0x00000000 (0000ms, 0440ms total)
T1124 001:610 JLINK_WriteMem(0x20000128, 0x0400 Bytes, ...) -- Data:  0D 46 29 46 20 46 12 F0 4A F8 4F F4 A2 60 00 59 ... -- CPU_WriteMem(1024 bytes @ 0x20000128)  returns 0x400 (0012ms, 0452ms total)
T1124 001:622 JLINK_WriteReg(R0, 0x0000D400)  returns 0x00 (0000ms, 0452ms total)
T1124 001:622 JLINK_WriteReg(R1, 0x00000400)  returns 0x00 (0000ms, 0452ms total)
T1124 001:622 JLINK_WriteReg(R2, 0x20000128)  returns 0x00 (0000ms, 0452ms total)
T1124 001:622 JLINK_WriteReg(R3, 0x00000000)  returns 0x00 (0000ms, 0452ms total)
T1124 001:622 JLINK_WriteReg(R4, 0x00000000)  returns 0x00 (0000ms, 0452ms total)
T1124 001:622 JLINK_WriteReg(R5, 0x00000000)  returns 0x00 (0000ms, 0452ms total)
T1124 001:622 JLINK_WriteReg(R6, 0x00000000)  returns 0x00 (0000ms, 0452ms total)
T1124 001:622 JLINK_WriteReg(R7, 0x00000000)  returns 0x00 (0000ms, 0452ms total)
T1124 001:622 JLINK_WriteReg(R8, 0x00000000)  returns 0x00 (0000ms, 0452ms total)
T1124 001:622 JLINK_WriteReg(R9, 0x20000124)  returns 0x00 (0000ms, 0452ms total)
T1124 001:622 JLINK_WriteReg(R10, 0x00000000)  returns 0x00 (0000ms, 0452ms total)
T1124 001:622 JLINK_WriteReg(R11, 0x00000000)  returns 0x00 (0000ms, 0452ms total)
T1124 001:622 JLINK_WriteReg(R12, 0x00000000)  returns 0x00 (0000ms, 0452ms total)
T1124 001:622 JLINK_WriteReg(R13, 0x20000800)  returns 0x00 (0000ms, 0452ms total)
T1124 001:622 JLINK_WriteReg(R14, 0x20000001)  returns 0x00 (0000ms, 0452ms total)
T1124 001:622 JLINK_WriteReg(R15, 0x20000092)  returns 0x00 (0000ms, 0452ms total)
T1124 001:622 JLINK_WriteReg(XPSR, 0x01000000)  returns 0x00 (0000ms, 0452ms total)
T1124 001:622 JLINK_WriteReg(MSP, 0x20000800)  returns 0x00 (0000ms, 0452ms total)
T1124 001:622 JLINK_WriteReg(PSP, 0x20000800)  returns 0x00 (0000ms, 0452ms total)
T1124 001:622 JLINK_WriteReg(CFBP, 0x00000000)  returns 0x00 (0000ms, 0452ms total)
T1124 001:622 JLINK_SetBPEx(Addr = 0x20000000, Type = 0xFFFFFFF2)  returns 0x00000013 (0000ms, 0452ms total)
T1124 001:622 JLINK_Go() (0003ms, 0455ms total)
T1124 001:625 JLINK_IsHalted()  returns FALSE (0001ms, 0456ms total)
T1124 001:750 JLINK_IsHalted() -- CPU_ReadMem(2 bytes @ 0x20000000)  returns TRUE (0007ms, 0462ms total)
T1124 001:757 JLINK_ReadReg(R15)  returns 0x20000000 (0000ms, 0455ms total)
T1124 001:757 JLINK_ClrBPEx(BPHandle = 0x00000013)  returns 0x00 (0000ms, 0455ms total)
T1124 001:757 JLINK_ReadReg(R0)  returns 0x00000000 (0000ms, 0455ms total)
T1124 001:758 JLINK_WriteMem(0x20000128, 0x0400 Bytes, ...) -- Data:  94 FC 10 BD 00 08 00 F0 4B 43 4F 4C 20 55 02 40 ... -- CPU_WriteMem(1024 bytes @ 0x20000128)  returns 0x400 (0012ms, 0467ms total)
T1124 001:770 JLINK_WriteReg(R0, 0x0000D800)  returns 0x00 (0000ms, 0467ms total)
T1124 001:770 JLINK_WriteReg(R1, 0x00000400)  returns 0x00 (0000ms, 0467ms total)
T1124 001:770 JLINK_WriteReg(R2, 0x20000128)  returns 0x00 (0000ms, 0467ms total)
